T162C 8354:370.091   SEGGER J-Link V7.88b Log File
T162C 8354:370.151   DLL Compiled: May 10 2023 14:08:13
T162C 8354:370.160   Logging started @ 2024-03-29 13:50
T162C 8354:370.167 - 6819.087ms
T162C 8354:370.177 JLINK_SetWarnOutHandler(...)
T162C 8354:370.183 - 0.009ms
T162C 8354:370.192 JLINK_OpenEx(...)
T162C 8354:371.251   Firmware: J-Link V9 compiled May  7 2021 16:26:12
T162C 8354:371.537   Firmware: J-Link V9 compiled May  7 2021 16:26:12
T162C 8354:371.683   Decompressing FW timestamp took 129 us
T162C 8354:378.389   Hardware: V9.60
T162C 8354:378.410   S/N: 69664595
T162C 8354:378.417   OEM: SEGGER
T162C 8354:378.426   Feature(s): RDI, GDB, FlashDL, FlashBP, JFlash
T162C 8354:379.780   TELNET listener socket opened on port 19021
T162C 8354:385.237   WEBSRV WEBSRV_Init(): Starting webserver thread(s)
T162C 8354:385.376   WEBSRV Webserver running on local port 19080
T162C 8354:388.991 - 18.809ms returns "O.K."
T162C 8354:389.323 JLINK_GetEmuCaps()
T162C 8354:389.338 - 0.017ms returns 0xB9FF7BBF
T162C 8354:389.349 JLINK_TIF_GetAvailable(...)
T162C 8354:389.540 - 0.198ms
T162C 8354:389.554 JLINK_SetErrorOutHandler(...)
T162C 8354:389.560 - 0.008ms
T162C 8354:389.572 JLINK_ExecCommand("ProjectFile = "C:\works\Accum\accum\MDK-ARM\JLinkSettings.ini"", ...). 
T162C 8354:390.962 - 1.399ms returns 0x00
T162C 8354:397.654 JLINK_ExecCommand("Device = STM32F042K6Tx", ...). 
T162C 8354:403.330   Device "STM32F042K6" selected.
T162C 8354:403.652 - 5.977ms returns 0x00
T162C 8354:403.665 JLINK_ExecCommand("DisableConnectionTimeout", ...). 
T162C 8354:403.675 - 0.005ms returns 0x01
T162C 8354:403.686 JLINK_GetHardwareVersion()
T162C 8354:403.692 - 0.008ms returns 96000
T162C 8354:403.700 JLINK_GetDLLVersion()
T162C 8354:403.705 - 0.008ms returns 78802
T162C 8354:403.712 JLINK_GetOEMString(...)
T162C 8354:403.719 JLINK_GetFirmwareString(...)
T162C 8354:403.724 - 0.008ms
T162C 8354:421.573 JLINK_GetDLLVersion()
T162C 8354:421.598 - 0.028ms returns 78802
T162C 8354:421.610 JLINK_GetCompileDateTime()
T162C 8354:421.616 - 0.008ms
T162C 8354:427.089 JLINK_GetFirmwareString(...)
T162C 8354:427.110 - 0.024ms
T162C 8354:432.579 JLINK_GetHardwareVersion()
T162C 8354:432.615 - 0.039ms returns 96000
T162C 8354:437.988 JLINK_GetSN()
T162C 8354:438.012 - 0.027ms returns 69664595
T162C 8354:443.757 JLINK_GetOEMString(...)
T162C 8354:455.006 JLINK_TIF_Select(JLINKARM_TIF_SWD)
T162C 8354:455.627 - 0.627ms returns 0x00
T162C 8354:455.640 JLINK_HasError()
T162C 8354:455.650 JLINK_SetSpeed(500)
T162C 8354:455.781 - 0.135ms
T162C 8354:455.792 JLINK_GetId()
T162C 8354:461.407   InitTarget() start
T162C 8354:461.440    J-Link Script File: Executing InitTarget()
T162C 8354:467.484   SWD selected. Executing JTAG -> SWD switching sequence.
T162C 8354:475.851   DAP initialized successfully.
T162C 8354:490.383   InitTarget() end - Took 23.2ms
T162C 8354:504.797   Found SW-DP with ID 0x0BB11477
T162C 8354:514.359   DPIDR: 0x0BB11477
T162C 8354:519.870   CoreSight SoC-400 or earlier
T162C 8354:525.928   Scanning AP map to find all available APs
T162C 8354:532.670   AP[1]: Stopped AP scan as end of AP map has been reached
T162C 8354:538.540   AP[0]: AHB-AP (IDR: 0x04770021)
T162C 8354:544.204   Iterating through AP map to find AHB-AP to use
T162C 8354:551.607   AP[0]: Core found
T162C 8354:557.007   AP[0]: AHB-AP ROM base: 0xE00FF000
T162C 8354:564.353   CPUID register: 0x410CC200. Implementer code: 0x41 (ARM)
T162C 8354:570.285   Found Cortex-M0 r0p0, Little endian.
T162C 8354:570.848   -- Max. mem block: 0x00010C40
T162C 8354:571.411   CPU_ReadMem(4 bytes @ 0xE000EDF0)
T162C 8354:572.192   CPU_ReadMem(4 bytes @ 0xE0002000)
T162C 8354:578.677   FPUnit: 4 code (BP) slots and 0 literal slots
T162C 8354:578.710   CPU_ReadMem(4 bytes @ 0xE000EDFC)
T162C 8354:579.469   CPU_WriteMem(4 bytes @ 0xE000EDFC)
T162C 8354:580.294   CPU_ReadMem(4 bytes @ 0xE0001000)
T162C 8354:581.032   CPU_WriteMem(4 bytes @ 0xE0001000)
T162C 8354:587.877   CoreSight components:
T162C 8354:593.505   ROMTbl[0] @ E00FF000
T162C 8354:593.577   CPU_ReadMem(64 bytes @ 0xE00FF000)
T162C 8354:595.903   CPU_ReadMem(32 bytes @ 0xE000EFE0)
T162C 8354:603.663   [0][0]: E000E000 CID B105E00D PID 000BB008 SCS
T162C 8354:603.697   CPU_ReadMem(32 bytes @ 0xE0001FE0)
T162C 8354:610.871   [0][1]: E0001000 CID B105E00D PID 000BB00A DWT
T162C 8354:610.903   CPU_ReadMem(32 bytes @ 0xE0002FE0)
T162C 8354:618.457   [0][2]: E0002000 CID B105E00D PID 000BB00B FPB
T162C 8354:618.798 - 163.012ms returns 0x0BB11477
T162C 8354:618.813 JLINK_GetDLLVersion()
T162C 8354:618.819 - 0.008ms returns 78802
T162C 8354:618.853 JLINK_CORE_GetFound()
T162C 8354:618.860 - 0.009ms returns 0x60000FF
T162C 8354:618.868 JLINK_GetDebugInfo(0x100 = JLINKARM_ROM_TABLE_ADDR_INDEX)
T162C 8354:618.874   Value=0xE00FF000
T162C 8354:618.882 - 0.017ms returns 0
T162C 8354:624.385 JLINK_GetDebugInfo(0x100 = JLINKARM_ROM_TABLE_ADDR_INDEX)
T162C 8354:624.404   Value=0xE00FF000
T162C 8354:624.412 - 0.030ms returns 0
T162C 8354:624.419 JLINK_GetDebugInfo(0x101 = JLINKARM_DEBUG_INFO_ETM_ADDR_INDEX)
T162C 8354:624.425   Value=0x00000000
T162C 8354:624.432 - 0.016ms returns 0
T162C 8354:624.443 JLINK_ReadMemEx(0xE0041FF0, 0x10 Bytes, Flags = 0x02000004)
T162C 8354:624.458   CPU_ReadMem(16 bytes @ 0xE0041FF0)
T162C 8354:625.539   Data:  00 00 00 00 00 00 00 00 00 00 00 00 00 00 00 00
T162C 8354:625.549 - 1.108ms returns 16 (0x10)
T162C 8354:625.556 JLINK_GetDebugInfo(0x102 = JLINKARM_DEBUG_INFO_MTB_ADDR_INDEX)
T162C 8354:625.562   Value=0x00000000
T162C 8354:625.570 - 0.016ms returns 0
T162C 8354:625.576 JLINK_GetDebugInfo(0x103 = JLINKARM_DEBUG_INFO_TPIU_ADDR_INDEX)
T162C 8354:625.582   Value=0x00000000
T162C 8354:625.590 - 0.016ms returns 0
T162C 8354:625.596 JLINK_ReadMemEx(0xE0040FF0, 0x10 Bytes, Flags = 0x02000004)
T162C 8354:625.604   CPU_ReadMem(16 bytes @ 0xE0040FF0)
T162C 8354:626.710   Data:  00 00 00 00 00 00 00 00 00 00 00 00 00 00 00 00
T162C 8354:626.719 - 1.125ms returns 16 (0x10)
T162C 8354:626.726 JLINK_GetDebugInfo(0x104 = JLINKARM_DEBUG_INFO_ITM_ADDR_INDEX)
T162C 8354:626.732   Value=0xE0000000
T162C 8354:626.740 - 0.016ms returns 0
T162C 8354:626.746 JLINK_GetDebugInfo(0x105 = JLINKARM_DEBUG_INFO_DWT_ADDR_INDEX)
T162C 8354:626.752   Value=0xE0001000
T162C 8354:626.759 - 0.016ms returns 0
T162C 8354:626.766 JLINK_GetDebugInfo(0x106 = JLINKARM_DEBUG_INFO_FPB_ADDR_INDEX)
T162C 8354:626.771   Value=0xE0002000
T162C 8354:626.779 - 0.016ms returns 0
T162C 8354:626.785 JLINK_GetDebugInfo(0x107 = JLINKARM_DEBUG_INFO_NVIC_ADDR_INDEX)
T162C 8354:626.791   Value=0xE000E000
T162C 8354:626.799 - 0.016ms returns 0
T162C 8354:626.805 JLINK_GetDebugInfo(0x10C = JLINKARM_DEBUG_INFO_DBG_ADDR_INDEX)
T162C 8354:626.811   Value=0xE000EDF0
T162C 8354:626.818 - 0.016ms returns 0
T162C 8354:626.825 JLINK_GetDebugInfo(0x01 = Unknown)
T162C 8354:626.831   Value=0x00000000
T162C 8354:626.838 - 0.016ms returns 0
T162C 8354:626.846 JLINK_ReadMemU32(0xE000ED00, 0x1 Items)
T162C 8354:626.854   CPU_ReadMem(4 bytes @ 0xE000ED00)
T162C 8354:627.709   Data:  00 C2 0C 41
T162C 8354:627.727   Debug reg: CPUID
T162C 8354:627.735 - 0.891ms returns 1 (0x1)
T162C 8354:627.744 JLINK_GetDebugInfo(0x10F = JLINKARM_DEBUG_INFO_HAS_CORTEX_M_SECURITY_EXT_INDEX)
T162C 8354:627.751   Value=0x00000000
T162C 8354:627.759 - 0.017ms returns 0
T162C 8354:627.766 JLINK_HasError()
T162C 8354:627.776 JLINK_SetResetType(JLINKARM_CM3_RESET_TYPE_NORMAL)
T162C 8354:627.783 - 0.009ms returns JLINKARM_CM3_RESET_TYPE_NORMAL
T162C 8354:627.790 JLINK_Reset()
T162C 8354:627.801   CPU is running
T162C 8354:627.811   CPU_WriteMem(4 bytes @ 0xE000EDF0)
T162C 8354:628.652   CPU is running
T162C 8354:628.672   CPU_WriteMem(4 bytes @ 0xE000EDFC)
T162C 8354:635.509   Reset: Halt core after reset via DEMCR.VC_CORERESET.
T162C 8354:641.877   Reset: Reset device via AIRCR.SYSRESETREQ.
T162C 8354:641.908   CPU is running
T162C 8354:641.920   CPU_WriteMem(4 bytes @ 0xE000ED0C)
T162C 8354:695.817   CPU_ReadMem(4 bytes @ 0xE000EDF0)
T162C 8354:696.680   CPU_ReadMem(4 bytes @ 0xE000EDF0)
T162C 8354:708.156   CPU_WriteMem(4 bytes @ 0xE000EDFC)
T162C 8354:714.857   CPU_ReadMem(4 bytes @ 0xE000EDF0)
T162C 8354:726.356   CPU_WriteMem(4 bytes @ 0xE0002000)
T162C 8354:727.236   CPU_ReadMem(4 bytes @ 0xE000EDFC)
T162C 8354:728.056   CPU_ReadMem(4 bytes @ 0xE0001000)
T162C 8354:728.889   CPU_WriteMem(4 bytes @ 0xE0001000)
T162C 8354:729.737 - 101.955ms
T162C 8354:729.792 JLINK_Halt()
T162C 8354:729.812 - 0.023ms returns 0x00
T162C 8354:729.820 JLINK_ReadMemU32(0xE000EDF0, 0x1 Items)
T162C 8354:729.833   CPU_ReadMem(4 bytes @ 0xE000EDF0)
T162C 8354:730.688   Data:  03 00 03 00
T162C 8354:730.700   Debug reg: DHCSR
T162C 8354:730.707 - 0.890ms returns 1 (0x1)
T162C 8354:730.719 JLINK_WriteU32_64(0xE000EDF0, 0xA05F0003)
T162C 8354:730.725   Debug reg: DHCSR
T162C 8354:730.935   CPU_WriteMem(4 bytes @ 0xE000EDF0)
T162C 8354:731.787 - 1.076ms returns 0 (0x00000000)
T162C 8354:731.802 JLINK_WriteU32_64(0xE000EDFC, 0x01000000)
T162C 8354:731.810   Debug reg: DEMCR
T162C 8354:731.822   CPU_WriteMem(4 bytes @ 0xE000EDFC)
T162C 8354:732.656 - 0.863ms returns 0 (0x00000000)
T162C 8354:785.446 JLINK_GetHWStatus(...)
T162C 8354:785.625 - 0.183ms returns 0
T162C 8354:816.701 JLINK_GetNumBPUnits(Type = 0xFFFFFF00)
T162C 8354:816.724 - 0.027ms returns 0x04
T162C 8354:816.732 JLINK_GetNumBPUnits(Type = 0xF0)
T162C 8354:816.738 - 0.008ms returns 0x2000
T162C 8354:816.745 JLINK_GetNumWPUnits()
T162C 8354:816.751 - 0.008ms returns 2
T162C 8354:834.766 JLINK_GetSpeed()
T162C 8354:834.791 - 0.028ms returns 500
T162C 8354:854.534 JLINK_ReadMemU32(0xE000E004, 0x1 Items)
T162C 8354:854.571   CPU_ReadMem(4 bytes @ 0xE000E004)
T162C 8354:855.377   Data:  00 00 00 00
T162C 8354:855.394 - 0.863ms returns 1 (0x1)
T162C 8354:855.405 JLINK_Halt()
T162C 8354:855.412 - 0.009ms returns 0x00
T162C 8354:855.422 JLINK_IsHalted()
T162C 8354:855.429 - 0.009ms returns TRUE
T162C 8354:857.289 JLINK_WriteMem(0x20000000, 0x170 Bytes, ...)
T162C 8354:857.300   Data:  00 BE 0A E0 0D 78 2D 06 68 40 08 24 40 00 00 D3 ...
T162C 8354:857.481   CPU_WriteMem(368 bytes @ 0x20000000)
T162C 8354:867.353 - 10.084ms returns 0x170
T162C 8354:867.424 JLINK_HasError()
T162C 8354:867.439 JLINK_WriteReg(R0, 0x08000000)
T162C 8354:867.448 - 0.011ms returns 0
T162C 8354:867.455 JLINK_WriteReg(R1, 0x007A1200)
T162C 8354:867.461 - 0.008ms returns 0
T162C 8354:867.467 JLINK_WriteReg(R2, 0x00000001)
T162C 8354:867.473 - 0.008ms returns 0
T162C 8354:867.479 JLINK_WriteReg(R3, 0x00000000)
T162C 8354:867.485 - 0.008ms returns 0
T162C 8354:867.491 JLINK_WriteReg(R4, 0x00000000)
T162C 8354:867.497 - 0.008ms returns 0
T162C 8354:867.503 JLINK_WriteReg(R5, 0x00000000)
T162C 8354:867.509 - 0.008ms returns 0
T162C 8354:867.516 JLINK_WriteReg(R6, 0x00000000)
T162C 8354:867.521 - 0.008ms returns 0
T162C 8354:867.528 JLINK_WriteReg(R7, 0x00000000)
T162C 8354:867.533 - 0.008ms returns 0
T162C 8354:867.540 JLINK_WriteReg(R8, 0x00000000)
T162C 8354:867.546 - 0.008ms returns 0
T162C 8354:867.552 JLINK_WriteReg(R9, 0x2000016C)
T162C 8354:867.558 - 0.008ms returns 0
T162C 8354:867.564 JLINK_WriteReg(R10, 0x00000000)
T162C 8354:867.570 - 0.008ms returns 0
T162C 8354:867.577 JLINK_WriteReg(R11, 0x00000000)
T162C 8354:867.583 - 0.008ms returns 0
T162C 8354:867.589 JLINK_WriteReg(R12, 0x00000000)
T162C 8354:867.594 - 0.008ms returns 0
T162C 8354:867.601 JLINK_WriteReg(R13 (SP), 0x20001000)
T162C 8354:867.607 - 0.009ms returns 0
T162C 8354:867.613 JLINK_WriteReg(R14, 0x20000001)
T162C 8354:867.619 - 0.008ms returns 0
T162C 8354:867.626 JLINK_WriteReg(R15 (PC), 0x20000038)
T162C 8354:867.632 - 0.008ms returns 0
T162C 8354:867.638 JLINK_WriteReg(XPSR, 0x01000000)
T162C 8354:867.644 - 0.008ms returns 0
T162C 8354:867.650 JLINK_WriteReg(MSP, 0x20001000)
T162C 8354:867.656 - 0.008ms returns 0
T162C 8354:867.662 JLINK_WriteReg(PSP, 0x20001000)
T162C 8354:867.668 - 0.008ms returns 0
T162C 8354:867.674 JLINK_WriteReg(CFBP, 0x00000000)
T162C 8354:867.680 - 0.008ms returns 0
T162C 8354:867.687 JLINK_SetBPEx(Addr = 0x20000000, Type = 0xFFFFFFF2)
T162C 8354:867.703   CPU_ReadMem(2 bytes @ 0x20000000)
T162C 8354:868.505 - 0.822ms returns 0x00000001
T162C 8354:868.516 JLINK_Go()
T162C 8354:868.525   CPU_WriteMem(2 bytes @ 0x20000000)
T162C 8354:869.353   CPU_ReadMem(4 bytes @ 0xE0001000)
T162C 8354:870.126   CPU_WriteMem(4 bytes @ 0xE0001000)
T162C 8354:870.966   CPU_WriteMem(4 bytes @ 0xE0002008)
T162C 8354:870.980   CPU_WriteMem(4 bytes @ 0xE000200C)
T162C 8354:870.988   CPU_WriteMem(4 bytes @ 0xE0002010)
T162C 8354:870.996   CPU_WriteMem(4 bytes @ 0xE0002014)
T162C 8354:873.735   CPU_WriteMem(4 bytes @ 0xE0001004)
T162C 8354:884.158 - 15.660ms
T162C 8354:884.184 JLINK_IsHalted()
T162C 8354:894.924   CPU_ReadMem(2 bytes @ 0x20000000)
T162C 8354:895.733 - 11.555ms returns TRUE
T162C 8354:895.784 JLINK_ReadReg(R15 (PC))
T162C 8354:895.793 - 0.012ms returns 0x20000000
T162C 8354:895.802 JLINK_ClrBPEx(BPHandle = 0x00000001)
T162C 8354:895.809 - 0.009ms returns 0x00
T162C 8354:895.816 JLINK_ReadReg(R0)
T162C 8354:895.822 - 0.009ms returns 0x00000000
T162C 8354:896.095 JLINK_HasError()
T162C 8354:896.107 JLINK_WriteReg(R0, 0x08000000)
T162C 8354:896.115 - 0.010ms returns 0
T162C 8354:896.121 JLINK_WriteReg(R1, 0x007A1200)
T162C 8354:896.127 - 0.008ms returns 0
T162C 8354:896.134 JLINK_WriteReg(R2, 0x00000001)
T162C 8354:896.139 - 0.008ms returns 0
T162C 8354:896.146 JLINK_WriteReg(R3, 0x00000000)
T162C 8354:896.152 - 0.008ms returns 0
T162C 8354:896.158 JLINK_WriteReg(R4, 0x00000000)
T162C 8354:896.164 - 0.008ms returns 0
T162C 8354:896.170 JLINK_WriteReg(R5, 0x00000000)
T162C 8354:896.176 - 0.008ms returns 0
T162C 8354:896.182 JLINK_WriteReg(R6, 0x00000000)
T162C 8354:896.188 - 0.008ms returns 0
T162C 8354:896.194 JLINK_WriteReg(R7, 0x00000000)
T162C 8354:896.200 - 0.008ms returns 0
T162C 8354:896.206 JLINK_WriteReg(R8, 0x00000000)
T162C 8354:896.212 - 0.008ms returns 0
T162C 8354:896.218 JLINK_WriteReg(R9, 0x2000016C)
T162C 8354:896.224 - 0.008ms returns 0
T162C 8354:896.231 JLINK_WriteReg(R10, 0x00000000)
T162C 8354:896.236 - 0.008ms returns 0
T162C 8354:896.243 JLINK_WriteReg(R11, 0x00000000)
T162C 8354:896.248 - 0.008ms returns 0
T162C 8354:896.255 JLINK_WriteReg(R12, 0x00000000)
T162C 8354:896.261 - 0.008ms returns 0
T162C 8354:896.267 JLINK_WriteReg(R13 (SP), 0x20001000)
T162C 8354:896.273 - 0.009ms returns 0
T162C 8354:896.280 JLINK_WriteReg(R14, 0x20000001)
T162C 8354:896.286 - 0.008ms returns 0
T162C 8354:896.292 JLINK_WriteReg(R15 (PC), 0x20000074)
T162C 8354:896.298 - 0.008ms returns 0
T162C 8354:896.304 JLINK_WriteReg(XPSR, 0x01000000)
T162C 8354:896.310 - 0.008ms returns 0
T162C 8354:896.317 JLINK_WriteReg(MSP, 0x20001000)
T162C 8354:896.322 - 0.008ms returns 0
T162C 8354:896.329 JLINK_WriteReg(PSP, 0x20001000)
T162C 8354:896.335 - 0.008ms returns 0
T162C 8354:896.341 JLINK_WriteReg(CFBP, 0x00000000)
T162C 8354:896.347 - 0.008ms returns 0
T162C 8354:896.353 JLINK_SetBPEx(Addr = 0x20000000, Type = 0xFFFFFFF2)
T162C 8354:896.360 - 0.009ms returns 0x00000002
T162C 8354:896.367 JLINK_Go()
T162C 8354:896.380   CPU_ReadMem(4 bytes @ 0xE0001000)
T162C 8354:906.669 - 10.315ms
T162C 8354:906.688 JLINK_IsHalted()
T162C 8354:907.553 - 0.870ms returns FALSE
T162C 8354:907.563 JLINK_HasError()
T162C 8354:932.778 JLINK_IsHalted()
T162C 8354:943.477   CPU_ReadMem(2 bytes @ 0x20000000)
T162C 8354:944.293 - 11.525ms returns TRUE
T162C 8354:944.310 JLINK_ReadReg(R15 (PC))
T162C 8354:944.318 - 0.010ms returns 0x20000000
T162C 8354:944.325 JLINK_ClrBPEx(BPHandle = 0x00000002)
T162C 8354:944.331 - 0.008ms returns 0x00
T162C 8354:944.338 JLINK_ReadReg(R0)
T162C 8354:944.344 - 0.008ms returns 0x00000000
T162C 8354:996.344 JLINK_HasError()
T162C 8354:996.374 JLINK_WriteReg(R0, 0x00000001)
T162C 8354:996.382 - 0.011ms returns 0
T162C 8354:996.389 JLINK_WriteReg(R1, 0x007A1200)
T162C 8354:996.395 - 0.008ms returns 0
T162C 8354:996.402 JLINK_WriteReg(R2, 0x00000001)
T162C 8354:996.408 - 0.008ms returns 0
T162C 8354:996.414 JLINK_WriteReg(R3, 0x00000000)
T162C 8354:996.420 - 0.050ms returns 0
T162C 8354:996.472 JLINK_WriteReg(R4, 0x00000000)
T162C 8354:996.479 - 0.009ms returns 0
T162C 8354:996.485 JLINK_WriteReg(R5, 0x00000000)
T162C 8354:996.491 - 0.008ms returns 0
T162C 8354:996.497 JLINK_WriteReg(R6, 0x00000000)
T162C 8354:996.503 - 0.008ms returns 0
T162C 8354:996.509 JLINK_WriteReg(R7, 0x00000000)
T162C 8354:996.515 - 0.008ms returns 0
T162C 8354:996.521 JLINK_WriteReg(R8, 0x00000000)
T162C 8354:996.527 - 0.008ms returns 0
T162C 8354:996.534 JLINK_WriteReg(R9, 0x2000016C)
T162C 8354:996.539 - 0.008ms returns 0
T162C 8354:996.546 JLINK_WriteReg(R10, 0x00000000)
T162C 8354:996.551 - 0.008ms returns 0
T162C 8354:996.558 JLINK_WriteReg(R11, 0x00000000)
T162C 8354:996.564 - 0.008ms returns 0
T162C 8354:996.570 JLINK_WriteReg(R12, 0x00000000)
T162C 8354:996.576 - 0.008ms returns 0
T162C 8354:996.582 JLINK_WriteReg(R13 (SP), 0x20001000)
T162C 8354:996.589 - 0.009ms returns 0
T162C 8354:996.595 JLINK_WriteReg(R14, 0x20000001)
T162C 8354:996.602 - 0.009ms returns 0
T162C 8354:996.609 JLINK_WriteReg(R15 (PC), 0x20000066)
T162C 8354:996.615 - 0.008ms returns 0
T162C 8354:996.621 JLINK_WriteReg(XPSR, 0x01000000)
T162C 8354:996.627 - 0.008ms returns 0
T162C 8354:996.633 JLINK_WriteReg(MSP, 0x20001000)
T162C 8354:996.639 - 0.008ms returns 0
T162C 8354:996.646 JLINK_WriteReg(PSP, 0x20001000)
T162C 8354:996.651 - 0.008ms returns 0
T162C 8354:996.658 JLINK_WriteReg(CFBP, 0x00000000)
T162C 8354:996.664 - 0.008ms returns 0
T162C 8354:996.670 JLINK_SetBPEx(Addr = 0x20000000, Type = 0xFFFFFFF2)
T162C 8354:996.678 - 0.010ms returns 0x00000003
T162C 8354:996.685 JLINK_Go()
T162C 8354:996.701   CPU_ReadMem(4 bytes @ 0xE0001000)
T162C 8355:007.065 - 10.392ms
T162C 8355:007.085 JLINK_IsHalted()
T162C 8355:017.828   CPU_ReadMem(2 bytes @ 0x20000000)
T162C 8355:018.689 - 11.614ms returns TRUE
T162C 8355:018.708 JLINK_ReadReg(R15 (PC))
T162C 8355:018.717 - 0.011ms returns 0x20000000
T162C 8355:018.725 JLINK_ClrBPEx(BPHandle = 0x00000003)
T162C 8355:018.731 - 0.009ms returns 0x00
T162C 8355:018.739 JLINK_ReadReg(R0)
T162C 8355:018.745 - 0.009ms returns 0x00000000
T162C 8355:048.005 JLINK_WriteMem(0x20000000, 0x170 Bytes, ...)
T162C 8355:048.023   Data:  00 BE 0A E0 0D 78 2D 06 68 40 08 24 40 00 00 D3 ...
T162C 8355:048.048   CPU_WriteMem(368 bytes @ 0x20000000)
T162C 8355:057.922 - 9.938ms returns 0x170
T162C 8355:057.982 JLINK_HasError()
T162C 8355:057.994 JLINK_WriteReg(R0, 0x08000000)
T162C 8355:058.005 - 0.014ms returns 0
T162C 8355:058.013 JLINK_WriteReg(R1, 0x007A1200)
T162C 8355:058.020 - 0.009ms returns 0
T162C 8355:058.027 JLINK_WriteReg(R2, 0x00000002)
T162C 8355:058.034 - 0.009ms returns 0
T162C 8355:058.041 JLINK_WriteReg(R3, 0x00000000)
T162C 8355:058.047 - 0.008ms returns 0
T162C 8355:058.055 JLINK_WriteReg(R4, 0x00000000)
T162C 8355:058.061 - 0.008ms returns 0
T162C 8355:058.068 JLINK_WriteReg(R5, 0x00000000)
T162C 8355:058.074 - 0.008ms returns 0
T162C 8355:058.081 JLINK_WriteReg(R6, 0x00000000)
T162C 8355:058.088 - 0.009ms returns 0
T162C 8355:058.095 JLINK_WriteReg(R7, 0x00000000)
T162C 8355:058.102 - 0.009ms returns 0
T162C 8355:058.109 JLINK_WriteReg(R8, 0x00000000)
T162C 8355:058.116 - 0.009ms returns 0
T162C 8355:058.123 JLINK_WriteReg(R9, 0x2000016C)
T162C 8355:058.129 - 0.008ms returns 0
T162C 8355:058.137 JLINK_WriteReg(R10, 0x00000000)
T162C 8355:058.143 - 0.009ms returns 0
T162C 8355:058.150 JLINK_WriteReg(R11, 0x00000000)
T162C 8355:058.156 - 0.008ms returns 0
T162C 8355:058.164 JLINK_WriteReg(R12, 0x00000000)
T162C 8355:058.170 - 0.008ms returns 0
T162C 8355:058.177 JLINK_WriteReg(R13 (SP), 0x20001000)
T162C 8355:058.184 - 0.009ms returns 0
T162C 8355:058.191 JLINK_WriteReg(R14, 0x20000001)
T162C 8355:058.197 - 0.008ms returns 0
T162C 8355:058.204 JLINK_WriteReg(R15 (PC), 0x20000038)
T162C 8355:058.210 - 0.008ms returns 0
T162C 8355:058.218 JLINK_WriteReg(XPSR, 0x01000000)
T162C 8355:058.224 - 0.008ms returns 0
T162C 8355:058.231 JLINK_WriteReg(MSP, 0x20001000)
T162C 8355:058.237 - 0.008ms returns 0
T162C 8355:058.248 JLINK_WriteReg(PSP, 0x20001000)
T162C 8355:058.256 - 0.011ms returns 0
T162C 8355:058.264 JLINK_WriteReg(CFBP, 0x00000000)
T162C 8355:058.269 - 0.008ms returns 0
T162C 8355:058.277 JLINK_SetBPEx(Addr = 0x20000000, Type = 0xFFFFFFF2)
T162C 8355:058.289   CPU_ReadMem(2 bytes @ 0x20000000)
T162C 8355:059.050 - 0.780ms returns 0x00000004
T162C 8355:059.064 JLINK_Go()
T162C 8355:059.074   CPU_WriteMem(2 bytes @ 0x20000000)
T162C 8355:059.898   CPU_ReadMem(4 bytes @ 0xE0001000)
T162C 8355:070.387 - 11.339ms
T162C 8355:070.415 JLINK_IsHalted()
T162C 8355:081.231   CPU_ReadMem(2 bytes @ 0x20000000)
T162C 8355:082.045 - 11.641ms returns TRUE
T162C 8355:082.066 JLINK_ReadReg(R15 (PC))
T162C 8355:082.074 - 0.011ms returns 0x20000000
T162C 8355:082.083 JLINK_ClrBPEx(BPHandle = 0x00000004)
T162C 8355:082.089 - 0.009ms returns 0x00
T162C 8355:082.097 JLINK_ReadReg(R0)
T162C 8355:082.103 - 0.009ms returns 0x00000000
T162C 8355:082.391 JLINK_WriteMem(0x20000170, 0x290 Bytes, ...)
T162C 8355:082.403   Data:  68 07 00 20 B5 01 00 08 59 2D 00 08 55 2D 00 08 ...
T162C 8355:082.419   CPU_WriteMem(656 bytes @ 0x20000170)
T162C 8355:099.098 - 16.720ms returns 0x290
T162C 8355:099.119 JLINK_WriteMem(0x20000400, 0x170 Bytes, ...)
T162C 8355:099.126   Data:  12 04 10 34 65 46 76 46 2F 06 36 0A 3E 43 2D 0A ...
T162C 8355:099.146   CPU_WriteMem(368 bytes @ 0x20000400)
T162C 8355:108.957 - 9.855ms returns 0x170
T162C 8355:108.986 JLINK_HasError()
T162C 8355:108.996 JLINK_WriteReg(R0, 0x08000000)
T162C 8355:109.006 - 0.012ms returns 0
T162C 8355:109.014 JLINK_WriteReg(R1, 0x00000400)
T162C 8355:109.020 - 0.009ms returns 0
T162C 8355:109.028 JLINK_WriteReg(R2, 0x20000170)
T162C 8355:109.034 - 0.008ms returns 0
T162C 8355:109.041 JLINK_WriteReg(R3, 0x00000000)
T162C 8355:109.047 - 0.008ms returns 0
T162C 8355:109.054 JLINK_WriteReg(R4, 0x00000000)
T162C 8355:109.060 - 0.008ms returns 0
T162C 8355:109.068 JLINK_WriteReg(R5, 0x00000000)
T162C 8355:109.074 - 0.009ms returns 0
T162C 8355:109.081 JLINK_WriteReg(R6, 0x00000000)
T162C 8355:109.087 - 0.008ms returns 0
T162C 8355:109.094 JLINK_WriteReg(R7, 0x00000000)
T162C 8355:109.101 - 0.009ms returns 0
T162C 8355:109.108 JLINK_WriteReg(R8, 0x00000000)
T162C 8355:109.114 - 0.008ms returns 0
T162C 8355:109.121 JLINK_WriteReg(R9, 0x2000016C)
T162C 8355:109.127 - 0.008ms returns 0
T162C 8355:109.135 JLINK_WriteReg(R10, 0x00000000)
T162C 8355:109.140 - 0.008ms returns 0
T162C 8355:109.148 JLINK_WriteReg(R11, 0x00000000)
T162C 8355:109.154 - 0.009ms returns 0
T162C 8355:109.162 JLINK_WriteReg(R12, 0x00000000)
T162C 8355:109.167 - 0.008ms returns 0
T162C 8355:109.175 JLINK_WriteReg(R13 (SP), 0x20001000)
T162C 8355:109.182 - 0.009ms returns 0
T162C 8355:109.189 JLINK_WriteReg(R14, 0x20000001)
T162C 8355:109.195 - 0.008ms returns 0
T162C 8355:109.202 JLINK_WriteReg(R15 (PC), 0x200000FA)
T162C 8355:109.208 - 0.008ms returns 0
T162C 8355:109.216 JLINK_WriteReg(XPSR, 0x01000000)
T162C 8355:109.222 - 0.009ms returns 0
T162C 8355:109.230 JLINK_WriteReg(MSP, 0x20001000)
T162C 8355:109.237 - 0.010ms returns 0
T162C 8355:109.245 JLINK_WriteReg(PSP, 0x20001000)
T162C 8355:109.251 - 0.008ms returns 0
T162C 8355:109.258 JLINK_WriteReg(CFBP, 0x00000000)
T162C 8355:109.264 - 0.008ms returns 0
T162C 8355:109.271 JLINK_SetBPEx(Addr = 0x20000000, Type = 0xFFFFFFF2)
T162C 8355:109.278 - 0.010ms returns 0x00000005
T162C 8355:109.287 JLINK_Go()
T162C 8355:109.303   CPU_ReadMem(4 bytes @ 0xE0001000)
T162C 8355:120.518 - 11.247ms
T162C 8355:120.545 JLINK_IsHalted()
T162C 8355:121.387 - 0.855ms returns FALSE
T162C 8355:121.410 JLINK_HasError()
T162C 8355:127.256 JLINK_IsHalted()
T162C 8355:128.219 - 0.975ms returns FALSE
T162C 8355:128.239 JLINK_HasError()
T162C 8355:130.256 JLINK_IsHalted()
T162C 8355:131.118 - 0.871ms returns FALSE
T162C 8355:131.135 JLINK_HasError()
T162C 8355:132.243 JLINK_IsHalted()
T162C 8355:133.138 - 0.906ms returns FALSE
T162C 8355:133.156 JLINK_HasError()
T162C 8355:134.240 JLINK_IsHalted()
T162C 8355:135.132 - 0.907ms returns FALSE
T162C 8355:135.158 JLINK_HasError()
T162C 8355:136.239 JLINK_IsHalted()
T162C 8355:137.099 - 0.874ms returns FALSE
T162C 8355:137.121 JLINK_HasError()
T162C 8355:138.236 JLINK_IsHalted()
T162C 8355:139.142 - 0.921ms returns FALSE
T162C 8355:139.166 JLINK_HasError()
T162C 8355:140.227 JLINK_IsHalted()
T162C 8355:141.102 - 0.886ms returns FALSE
T162C 8355:141.122 JLINK_HasError()
T162C 8355:142.223 JLINK_IsHalted()
T162C 8355:143.102 - 0.907ms returns FALSE
T162C 8355:143.157 JLINK_HasError()
T162C 8355:144.315 JLINK_IsHalted()
T162C 8355:145.495 - 1.203ms returns FALSE
T162C 8355:145.527 JLINK_HasError()
T162C 8355:147.212 JLINK_IsHalted()
T162C 8355:148.099 - 0.897ms returns FALSE
T162C 8355:148.119 JLINK_HasError()
T162C 8355:149.202 JLINK_IsHalted()
T162C 8355:150.050 - 0.862ms returns FALSE
T162C 8355:150.073 JLINK_HasError()
T162C 8355:151.195 JLINK_IsHalted()
T162C 8355:163.760   CPU_ReadMem(2 bytes @ 0x20000000)
T162C 8355:164.640 - 13.454ms returns TRUE
T162C 8355:164.657 JLINK_ReadReg(R15 (PC))
T162C 8355:164.666 - 0.011ms returns 0x20000000
T162C 8355:164.673 JLINK_ClrBPEx(BPHandle = 0x00000005)
T162C 8355:164.679 - 0.009ms returns 0x00
T162C 8355:164.686 JLINK_ReadReg(R0)
T162C 8355:164.692 - 0.008ms returns 0x00000000
T162C 8355:165.261 JLINK_WriteMem(0x20000170, 0x290 Bytes, ...)
T162C 8355:165.278   Data:  00 07 05 D5 70 2D 03 D0 00 29 01 D0 02 23 11 32 ...
T162C 8355:165.297   CPU_WriteMem(656 bytes @ 0x20000170)
T162C 8355:181.998 - 16.754ms returns 0x290
T162C 8355:182.024 JLINK_WriteMem(0x20000400, 0x170 Bytes, ...)
T162C 8355:182.032   Data:  01 D3 CB 01 C0 1A 52 41 83 09 8B 42 01 D3 8B 01 ...
T162C 8355:182.052   CPU_WriteMem(368 bytes @ 0x20000400)
T162C 8355:191.872 - 9.867ms returns 0x170
T162C 8355:191.901 JLINK_HasError()
T162C 8355:191.911 JLINK_WriteReg(R0, 0x08000400)
T162C 8355:191.920 - 0.012ms returns 0
T162C 8355:191.928 JLINK_WriteReg(R1, 0x00000400)
T162C 8355:191.934 - 0.009ms returns 0
T162C 8355:191.942 JLINK_WriteReg(R2, 0x20000170)
T162C 8355:191.948 - 0.008ms returns 0
T162C 8355:191.955 JLINK_WriteReg(R3, 0x00000000)
T162C 8355:191.961 - 0.008ms returns 0
T162C 8355:191.968 JLINK_WriteReg(R4, 0x00000000)
T162C 8355:191.974 - 0.008ms returns 0
T162C 8355:191.981 JLINK_WriteReg(R5, 0x00000000)
T162C 8355:191.987 - 0.008ms returns 0
T162C 8355:191.994 JLINK_WriteReg(R6, 0x00000000)
T162C 8355:192.000 - 0.008ms returns 0
T162C 8355:192.008 JLINK_WriteReg(R7, 0x00000000)
T162C 8355:192.013 - 0.008ms returns 0
T162C 8355:192.021 JLINK_WriteReg(R8, 0x00000000)
T162C 8355:192.027 - 0.008ms returns 0
T162C 8355:192.034 JLINK_WriteReg(R9, 0x2000016C)
T162C 8355:192.040 - 0.008ms returns 0
T162C 8355:192.047 JLINK_WriteReg(R10, 0x00000000)
T162C 8355:192.053 - 0.008ms returns 0
T162C 8355:192.060 JLINK_WriteReg(R11, 0x00000000)
T162C 8355:192.066 - 0.008ms returns 0
T162C 8355:192.073 JLINK_WriteReg(R12, 0x00000000)
T162C 8355:192.080 - 0.009ms returns 0
T162C 8355:192.088 JLINK_WriteReg(R13 (SP), 0x20001000)
T162C 8355:192.094 - 0.009ms returns 0
T162C 8355:192.102 JLINK_WriteReg(R14, 0x20000001)
T162C 8355:192.107 - 0.008ms returns 0
T162C 8355:192.115 JLINK_WriteReg(R15 (PC), 0x200000FA)
T162C 8355:192.121 - 0.008ms returns 0
T162C 8355:192.128 JLINK_WriteReg(XPSR, 0x01000000)
T162C 8355:192.134 - 0.008ms returns 0
T162C 8355:192.141 JLINK_WriteReg(MSP, 0x20001000)
T162C 8355:192.147 - 0.008ms returns 0
T162C 8355:192.154 JLINK_WriteReg(PSP, 0x20001000)
T162C 8355:192.160 - 0.008ms returns 0
T162C 8355:192.167 JLINK_WriteReg(CFBP, 0x00000000)
T162C 8355:192.173 - 0.008ms returns 0
T162C 8355:192.180 JLINK_SetBPEx(Addr = 0x20000000, Type = 0xFFFFFFF2)
T162C 8355:192.187 - 0.010ms returns 0x00000006
T162C 8355:192.195 JLINK_Go()
T162C 8355:192.209   CPU_ReadMem(4 bytes @ 0xE0001000)
T162C 8355:202.645 - 10.469ms
T162C 8355:202.673 JLINK_IsHalted()
T162C 8355:203.544 - 0.875ms returns FALSE
T162C 8355:203.555 JLINK_HasError()
T162C 8355:208.038 JLINK_IsHalted()
T162C 8355:208.899 - 0.871ms returns FALSE
T162C 8355:208.918 JLINK_HasError()
T162C 8355:210.030 JLINK_IsHalted()
T162C 8355:210.880 - 0.861ms returns FALSE
T162C 8355:210.898 JLINK_HasError()
T162C 8355:212.032 JLINK_IsHalted()
T162C 8355:212.862 - 0.838ms returns FALSE
T162C 8355:212.877 JLINK_HasError()
T162C 8355:214.059 JLINK_IsHalted()
T162C 8355:215.053 - 1.007ms returns FALSE
T162C 8355:215.073 JLINK_HasError()
T162C 8355:217.022 JLINK_IsHalted()
T162C 8355:217.962 - 0.954ms returns FALSE
T162C 8355:217.983 JLINK_HasError()
T162C 8355:220.005 JLINK_IsHalted()
T162C 8355:220.907 - 0.908ms returns FALSE
T162C 8355:220.918 JLINK_HasError()
T162C 8355:221.999 JLINK_IsHalted()
T162C 8355:222.836 - 0.841ms returns FALSE
T162C 8355:222.844 JLINK_HasError()
T162C 8355:223.994 JLINK_IsHalted()
T162C 8355:224.828 - 0.837ms returns FALSE
T162C 8355:224.836 JLINK_HasError()
T162C 8355:225.989 JLINK_IsHalted()
T162C 8355:226.886 - 0.903ms returns FALSE
T162C 8355:226.897 JLINK_HasError()
T162C 8355:227.989 JLINK_IsHalted()
T162C 8355:228.866 - 0.885ms returns FALSE
T162C 8355:228.882 JLINK_HasError()
T162C 8355:229.982 JLINK_IsHalted()
T162C 8355:230.854 - 0.877ms returns FALSE
T162C 8355:230.865 JLINK_HasError()
T162C 8355:233.979 JLINK_IsHalted()
T162C 8355:244.837   CPU_ReadMem(2 bytes @ 0x20000000)
T162C 8355:245.691 - 11.722ms returns TRUE
T162C 8355:245.708 JLINK_ReadReg(R15 (PC))
T162C 8355:245.717 - 0.011ms returns 0x20000000
T162C 8355:245.724 JLINK_ClrBPEx(BPHandle = 0x00000006)
T162C 8355:245.730 - 0.008ms returns 0x00
T162C 8355:245.736 JLINK_ReadReg(R0)
T162C 8355:245.742 - 0.008ms returns 0x00000000
T162C 8355:246.243 JLINK_WriteMem(0x20000170, 0x290 Bytes, ...)
T162C 8355:246.262   Data:  4B 0C 7F 24 E3 1A 43 4C 00 0A 7C 44 E3 5C 7D 24 ...
T162C 8355:246.280   CPU_WriteMem(656 bytes @ 0x20000170)
T162C 8355:262.933 - 16.709ms returns 0x290
T162C 8355:262.962 JLINK_WriteMem(0x20000400, 0x170 Bytes, ...)
T162C 8355:262.969   Data:  F0 BD 01 20 FB E7 00 00 01 69 4A 1C 02 61 08 78 ...
T162C 8355:262.986   CPU_WriteMem(368 bytes @ 0x20000400)
T162C 8355:272.858 - 9.907ms returns 0x170
T162C 8355:272.877 JLINK_HasError()
T162C 8355:272.886 JLINK_WriteReg(R0, 0x08000800)
T162C 8355:272.895 - 0.011ms returns 0
T162C 8355:272.902 JLINK_WriteReg(R1, 0x00000400)
T162C 8355:272.908 - 0.008ms returns 0
T162C 8355:272.916 JLINK_WriteReg(R2, 0x20000170)
T162C 8355:272.921 - 0.008ms returns 0
T162C 8355:272.929 JLINK_WriteReg(R3, 0x00000000)
T162C 8355:272.935 - 0.008ms returns 0
T162C 8355:272.942 JLINK_WriteReg(R4, 0x00000000)
T162C 8355:272.948 - 0.008ms returns 0
T162C 8355:272.955 JLINK_WriteReg(R5, 0x00000000)
T162C 8355:272.961 - 0.008ms returns 0
T162C 8355:272.968 JLINK_WriteReg(R6, 0x00000000)
T162C 8355:272.974 - 0.008ms returns 0
T162C 8355:272.981 JLINK_WriteReg(R7, 0x00000000)
T162C 8355:272.987 - 0.008ms returns 0
T162C 8355:272.994 JLINK_WriteReg(R8, 0x00000000)
T162C 8355:273.000 - 0.008ms returns 0
T162C 8355:273.007 JLINK_WriteReg(R9, 0x2000016C)
T162C 8355:273.013 - 0.008ms returns 0
T162C 8355:273.020 JLINK_WriteReg(R10, 0x00000000)
T162C 8355:273.026 - 0.008ms returns 0
T162C 8355:273.033 JLINK_WriteReg(R11, 0x00000000)
T162C 8355:273.039 - 0.008ms returns 0
T162C 8355:273.047 JLINK_WriteReg(R12, 0x00000000)
T162C 8355:273.052 - 0.008ms returns 0
T162C 8355:273.060 JLINK_WriteReg(R13 (SP), 0x20001000)
T162C 8355:273.066 - 0.009ms returns 0
T162C 8355:273.073 JLINK_WriteReg(R14, 0x20000001)
T162C 8355:273.079 - 0.008ms returns 0
T162C 8355:273.086 JLINK_WriteReg(R15 (PC), 0x200000FA)
T162C 8355:273.092 - 0.008ms returns 0
T162C 8355:273.099 JLINK_WriteReg(XPSR, 0x01000000)
T162C 8355:273.105 - 0.008ms returns 0
T162C 8355:273.113 JLINK_WriteReg(MSP, 0x20001000)
T162C 8355:273.118 - 0.008ms returns 0
T162C 8355:273.126 JLINK_WriteReg(PSP, 0x20001000)
T162C 8355:273.131 - 0.008ms returns 0
T162C 8355:273.138 JLINK_WriteReg(CFBP, 0x00000000)
T162C 8355:273.144 - 0.008ms returns 0
T162C 8355:273.152 JLINK_SetBPEx(Addr = 0x20000000, Type = 0xFFFFFFF2)
T162C 8355:273.203 - 0.057ms returns 0x00000007
T162C 8355:273.215 JLINK_Go()
T162C 8355:273.228   CPU_ReadMem(4 bytes @ 0xE0001000)
T162C 8355:283.635 - 10.439ms
T162C 8355:283.663 JLINK_IsHalted()
T162C 8355:284.553 - 0.894ms returns FALSE
T162C 8355:284.563 JLINK_HasError()
T162C 8355:287.823 JLINK_IsHalted()
T162C 8355:288.689 - 0.870ms returns FALSE
T162C 8355:288.699 JLINK_HasError()
T162C 8355:289.821 JLINK_IsHalted()
T162C 8355:290.692 - 0.877ms returns FALSE
T162C 8355:290.704 JLINK_HasError()
T162C 8355:291.811 JLINK_IsHalted()
T162C 8355:292.668 - 0.861ms returns FALSE
T162C 8355:292.677 JLINK_HasError()
T162C 8355:293.810 JLINK_IsHalted()
T162C 8355:294.793 - 1.002ms returns FALSE
T162C 8355:294.819 JLINK_HasError()
T162C 8355:296.803 JLINK_IsHalted()
T162C 8355:297.691 - 0.893ms returns FALSE
T162C 8355:297.702 JLINK_HasError()
T162C 8355:298.799 JLINK_IsHalted()
T162C 8355:299.650 - 0.864ms returns FALSE
T162C 8355:299.672 JLINK_HasError()
T162C 8355:300.794 JLINK_IsHalted()
T162C 8355:301.678 - 0.889ms returns FALSE
T162C 8355:301.688 JLINK_HasError()
T162C 8355:302.781 JLINK_IsHalted()
T162C 8355:303.646 - 0.868ms returns FALSE
T162C 8355:303.654 JLINK_HasError()
T162C 8355:304.778 JLINK_IsHalted()
T162C 8355:305.646 - 0.872ms returns FALSE
T162C 8355:305.655 JLINK_HasError()
T162C 8355:306.772 JLINK_IsHalted()
T162C 8355:307.634 - 0.866ms returns FALSE
T162C 8355:307.642 JLINK_HasError()
T162C 8355:308.768 JLINK_IsHalted()
T162C 8355:309.639 - 0.875ms returns FALSE
T162C 8355:309.648 JLINK_HasError()
T162C 8355:310.762 JLINK_IsHalted()
T162C 8355:311.656 - 0.910ms returns FALSE
T162C 8355:311.680 JLINK_HasError()
T162C 8355:312.759 JLINK_IsHalted()
T162C 8355:323.487   CPU_ReadMem(2 bytes @ 0x20000000)
T162C 8355:324.297 - 11.546ms returns TRUE
T162C 8355:324.311 JLINK_ReadReg(R15 (PC))
T162C 8355:324.319 - 0.010ms returns 0x20000000
T162C 8355:324.326 JLINK_ClrBPEx(BPHandle = 0x00000007)
T162C 8355:324.332 - 0.008ms returns 0x00
T162C 8355:324.338 JLINK_ReadReg(R0)
T162C 8355:324.344 - 0.008ms returns 0x00000000
T162C 8355:324.759 JLINK_WriteMem(0x20000170, 0x290 Bytes, ...)
T162C 8355:324.771   Data:  64 68 00 2C 01 D0 AC 42 F9 D3 01 68 0A 18 AA 42 ...
T162C 8355:324.785   CPU_WriteMem(656 bytes @ 0x20000170)
T162C 8355:341.403 - 16.660ms returns 0x290
T162C 8355:341.428 JLINK_WriteMem(0x20000400, 0x170 Bytes, ...)
T162C 8355:341.435   Data:  08 30 70 47 00 28 03 D0 02 46 08 32 91 42 01 D0 ...
T162C 8355:341.452   CPU_WriteMem(368 bytes @ 0x20000400)
T162C 8355:351.306 - 9.894ms returns 0x170
T162C 8355:351.333 JLINK_HasError()
T162C 8355:351.343 JLINK_WriteReg(R0, 0x08000C00)
T162C 8355:351.352 - 0.012ms returns 0
T162C 8355:351.360 JLINK_WriteReg(R1, 0x00000400)
T162C 8355:351.366 - 0.008ms returns 0
T162C 8355:351.373 JLINK_WriteReg(R2, 0x20000170)
T162C 8355:351.379 - 0.008ms returns 0
T162C 8355:351.386 JLINK_WriteReg(R3, 0x00000000)
T162C 8355:351.392 - 0.008ms returns 0
T162C 8355:351.399 JLINK_WriteReg(R4, 0x00000000)
T162C 8355:351.405 - 0.009ms returns 0
T162C 8355:351.413 JLINK_WriteReg(R5, 0x00000000)
T162C 8355:351.419 - 0.008ms returns 0
T162C 8355:351.426 JLINK_WriteReg(R6, 0x00000000)
T162C 8355:351.431 - 0.008ms returns 0
T162C 8355:351.439 JLINK_WriteReg(R7, 0x00000000)
T162C 8355:351.445 - 0.008ms returns 0
T162C 8355:351.452 JLINK_WriteReg(R8, 0x00000000)
T162C 8355:351.458 - 0.008ms returns 0
T162C 8355:351.465 JLINK_WriteReg(R9, 0x2000016C)
T162C 8355:351.471 - 0.008ms returns 0
T162C 8355:351.478 JLINK_WriteReg(R10, 0x00000000)
T162C 8355:351.484 - 0.008ms returns 0
T162C 8355:351.491 JLINK_WriteReg(R11, 0x00000000)
T162C 8355:351.497 - 0.008ms returns 0
T162C 8355:351.504 JLINK_WriteReg(R12, 0x00000000)
T162C 8355:351.510 - 0.008ms returns 0
T162C 8355:351.517 JLINK_WriteReg(R13 (SP), 0x20001000)
T162C 8355:351.523 - 0.009ms returns 0
T162C 8355:351.531 JLINK_WriteReg(R14, 0x20000001)
T162C 8355:351.536 - 0.008ms returns 0
T162C 8355:351.544 JLINK_WriteReg(R15 (PC), 0x200000FA)
T162C 8355:351.603 - 0.065ms returns 0
T162C 8355:351.615 JLINK_WriteReg(XPSR, 0x01000000)
T162C 8355:351.621 - 0.008ms returns 0
T162C 8355:351.628 JLINK_WriteReg(MSP, 0x20001000)
T162C 8355:351.634 - 0.008ms returns 0
T162C 8355:351.641 JLINK_WriteReg(PSP, 0x20001000)
T162C 8355:351.648 - 0.009ms returns 0
T162C 8355:351.657 JLINK_WriteReg(CFBP, 0x00000000)
T162C 8355:351.663 - 0.008ms returns 0
T162C 8355:351.671 JLINK_SetBPEx(Addr = 0x20000000, Type = 0xFFFFFFF2)
T162C 8355:351.678 - 0.010ms returns 0x00000008
T162C 8355:351.687 JLINK_Go()
T162C 8355:351.703   CPU_ReadMem(4 bytes @ 0xE0001000)
T162C 8355:362.049 - 10.377ms
T162C 8355:362.074 JLINK_IsHalted()
T162C 8355:362.961 - 0.892ms returns FALSE
T162C 8355:362.972 JLINK_HasError()
T162C 8355:364.618 JLINK_IsHalted()
T162C 8355:365.500 - 0.885ms returns FALSE
T162C 8355:365.508 JLINK_HasError()
T162C 8355:366.616 JLINK_IsHalted()
T162C 8355:367.503 - 0.891ms returns FALSE
T162C 8355:367.513 JLINK_HasError()
T162C 8355:368.608 JLINK_IsHalted()
T162C 8355:369.470 - 0.866ms returns FALSE
T162C 8355:369.479 JLINK_HasError()
T162C 8355:370.603 JLINK_IsHalted()
T162C 8355:371.474 - 0.875ms returns FALSE
T162C 8355:371.483 JLINK_HasError()
T162C 8355:372.595 JLINK_IsHalted()
T162C 8355:373.456 - 0.866ms returns FALSE
T162C 8355:373.465 JLINK_HasError()
T162C 8355:374.591 JLINK_IsHalted()
T162C 8355:375.456 - 0.873ms returns FALSE
T162C 8355:375.469 JLINK_HasError()
T162C 8355:376.584 JLINK_IsHalted()
T162C 8355:377.473 - 0.895ms returns FALSE
T162C 8355:377.485 JLINK_HasError()
T162C 8355:378.582 JLINK_IsHalted()
T162C 8355:379.453 - 0.875ms returns FALSE
T162C 8355:379.462 JLINK_HasError()
T162C 8355:380.573 JLINK_IsHalted()
T162C 8355:381.430 - 0.861ms returns FALSE
T162C 8355:381.439 JLINK_HasError()
T162C 8355:382.568 JLINK_IsHalted()
T162C 8355:383.435 - 0.878ms returns FALSE
T162C 8355:383.453 JLINK_HasError()
T162C 8355:386.561 JLINK_IsHalted()
T162C 8355:387.411 - 0.855ms returns FALSE
T162C 8355:387.421 JLINK_HasError()
T162C 8355:388.555 JLINK_IsHalted()
T162C 8355:389.427 - 0.876ms returns FALSE
T162C 8355:389.437 JLINK_HasError()
T162C 8355:390.548 JLINK_IsHalted()
T162C 8355:391.418 - 0.880ms returns FALSE
T162C 8355:391.434 JLINK_HasError()
T162C 8355:392.543 JLINK_IsHalted()
T162C 8355:403.304   CPU_ReadMem(2 bytes @ 0x20000000)
T162C 8355:404.107 - 11.568ms returns TRUE
T162C 8355:404.118 JLINK_ReadReg(R15 (PC))
T162C 8355:404.126 - 0.010ms returns 0x20000000
T162C 8355:404.133 JLINK_ClrBPEx(BPHandle = 0x00000008)
T162C 8355:404.139 - 0.009ms returns 0x00
T162C 8355:404.146 JLINK_ReadReg(R0)
T162C 8355:404.152 - 0.008ms returns 0x00000000
T162C 8355:404.554 JLINK_WriteMem(0x20000170, 0x290 Bytes, ...)
T162C 8355:404.565   Data:  00 28 04 D1 01 20 00 07 18 40 00 28 69 D0 03 20 ...
T162C 8355:404.579   CPU_WriteMem(656 bytes @ 0x20000170)
T162C 8355:421.305 - 16.768ms returns 0x290
T162C 8355:421.332 JLINK_WriteMem(0x20000400, 0x170 Bytes, ...)
T162C 8355:421.339   Data:  04 26 30 40 90 60 90 68 00 28 07 D1 20 68 FF 30 ...
T162C 8355:421.355   CPU_WriteMem(368 bytes @ 0x20000400)
T162C 8355:431.227 - 9.910ms returns 0x170
T162C 8355:431.253 JLINK_HasError()
T162C 8355:431.263 JLINK_WriteReg(R0, 0x08001000)
T162C 8355:431.271 - 0.011ms returns 0
T162C 8355:431.279 JLINK_WriteReg(R1, 0x00000400)
T162C 8355:431.285 - 0.009ms returns 0
T162C 8355:431.293 JLINK_WriteReg(R2, 0x20000170)
T162C 8355:431.299 - 0.008ms returns 0
T162C 8355:431.306 JLINK_WriteReg(R3, 0x00000000)
T162C 8355:431.312 - 0.008ms returns 0
T162C 8355:431.319 JLINK_WriteReg(R4, 0x00000000)
T162C 8355:431.325 - 0.008ms returns 0
T162C 8355:431.332 JLINK_WriteReg(R5, 0x00000000)
T162C 8355:431.338 - 0.008ms returns 0
T162C 8355:431.346 JLINK_WriteReg(R6, 0x00000000)
T162C 8355:431.351 - 0.008ms returns 0
T162C 8355:431.359 JLINK_WriteReg(R7, 0x00000000)
T162C 8355:431.365 - 0.008ms returns 0
T162C 8355:431.372 JLINK_WriteReg(R8, 0x00000000)
T162C 8355:431.378 - 0.008ms returns 0
T162C 8355:431.385 JLINK_WriteReg(R9, 0x2000016C)
T162C 8355:431.397 - 0.014ms returns 0
T162C 8355:431.404 JLINK_WriteReg(R10, 0x00000000)
T162C 8355:431.410 - 0.008ms returns 0
T162C 8355:431.417 JLINK_WriteReg(R11, 0x00000000)
T162C 8355:431.423 - 0.008ms returns 0
T162C 8355:431.430 JLINK_WriteReg(R12, 0x00000000)
T162C 8355:431.438 - 0.009ms returns 0
T162C 8355:431.445 JLINK_WriteReg(R13 (SP), 0x20001000)
T162C 8355:431.451 - 0.009ms returns 0
T162C 8355:431.459 JLINK_WriteReg(R14, 0x20000001)
T162C 8355:431.465 - 0.008ms returns 0
T162C 8355:431.472 JLINK_WriteReg(R15 (PC), 0x200000FA)
T162C 8355:431.478 - 0.008ms returns 0
T162C 8355:431.485 JLINK_WriteReg(XPSR, 0x01000000)
T162C 8355:431.491 - 0.008ms returns 0
T162C 8355:431.499 JLINK_WriteReg(MSP, 0x20001000)
T162C 8355:431.504 - 0.008ms returns 0
T162C 8355:431.512 JLINK_WriteReg(PSP, 0x20001000)
T162C 8355:431.517 - 0.008ms returns 0
T162C 8355:431.525 JLINK_WriteReg(CFBP, 0x00000000)
T162C 8355:431.531 - 0.008ms returns 0
T162C 8355:431.538 JLINK_SetBPEx(Addr = 0x20000000, Type = 0xFFFFFFF2)
T162C 8355:431.545 - 0.009ms returns 0x00000009
T162C 8355:431.553 JLINK_Go()
T162C 8355:431.566   CPU_ReadMem(4 bytes @ 0xE0001000)
T162C 8355:441.854 - 10.309ms
T162C 8355:441.869 JLINK_IsHalted()
T162C 8355:442.772 - 0.906ms returns FALSE
T162C 8355:442.782 JLINK_HasError()
T162C 8355:444.409 JLINK_IsHalted()
T162C 8355:445.298 - 0.897ms returns FALSE
T162C 8355:445.312 JLINK_HasError()
T162C 8355:446.400 JLINK_IsHalted()
T162C 8355:447.293 - 0.897ms returns FALSE
T162C 8355:447.303 JLINK_HasError()
T162C 8355:448.393 JLINK_IsHalted()
T162C 8355:449.259 - 0.869ms returns FALSE
T162C 8355:449.267 JLINK_HasError()
T162C 8355:450.387 JLINK_IsHalted()
T162C 8355:451.249 - 0.866ms returns FALSE
T162C 8355:451.258 JLINK_HasError()
T162C 8355:452.385 JLINK_IsHalted()
T162C 8355:453.250 - 0.869ms returns FALSE
T162C 8355:453.259 JLINK_HasError()
T162C 8355:454.378 JLINK_IsHalted()
T162C 8355:455.232 - 0.858ms returns FALSE
T162C 8355:455.241 JLINK_HasError()
T162C 8355:456.372 JLINK_IsHalted()
T162C 8355:457.232 - 0.864ms returns FALSE
T162C 8355:457.241 JLINK_HasError()
T162C 8355:458.366 JLINK_IsHalted()
T162C 8355:459.246 - 0.883ms returns FALSE
T162C 8355:459.254 JLINK_HasError()
T162C 8355:460.361 JLINK_IsHalted()
T162C 8355:461.252 - 0.899ms returns FALSE
T162C 8355:461.266 JLINK_HasError()
T162C 8355:462.360 JLINK_IsHalted()
T162C 8355:463.244 - 0.890ms returns FALSE
T162C 8355:463.256 JLINK_HasError()
T162C 8355:464.351 JLINK_IsHalted()
T162C 8355:465.242 - 0.895ms returns FALSE
T162C 8355:465.251 JLINK_HasError()
T162C 8355:466.345 JLINK_IsHalted()
T162C 8355:467.207 - 0.865ms returns FALSE
T162C 8355:467.215 JLINK_HasError()
T162C 8355:468.340 JLINK_IsHalted()
T162C 8355:469.202 - 0.866ms returns FALSE
T162C 8355:469.212 JLINK_HasError()
T162C 8355:470.337 JLINK_IsHalted()
T162C 8355:471.216 - 0.885ms returns FALSE
T162C 8355:471.229 JLINK_HasError()
T162C 8355:472.329 JLINK_IsHalted()
T162C 8355:483.097   CPU_ReadMem(2 bytes @ 0x20000000)
T162C 8355:483.924 - 11.603ms returns TRUE
T162C 8355:483.939 JLINK_ReadReg(R15 (PC))
T162C 8355:483.947 - 0.011ms returns 0x20000000
T162C 8355:483.954 JLINK_ClrBPEx(BPHandle = 0x00000009)
T162C 8355:483.960 - 0.008ms returns 0x00
T162C 8355:483.967 JLINK_ReadReg(R0)
T162C 8355:483.973 - 0.008ms returns 0x00000000
T162C 8355:484.387 JLINK_WriteMem(0x20000170, 0x290 Bytes, ...)
T162C 8355:484.399   Data:  00 2B 00 D0 40 1C 0B 68 9B 68 01 24 E4 06 23 40 ...
T162C 8355:484.413   CPU_WriteMem(656 bytes @ 0x20000170)
T162C 8355:501.102 - 16.738ms returns 0x290
T162C 8355:501.135 JLINK_WriteMem(0x20000400, 0x170 Bytes, ...)
T162C 8355:501.142   Data:  15 D0 06 DC 10 28 09 D0 20 28 0A D0 30 28 18 D1 ...
T162C 8355:501.159   CPU_WriteMem(368 bytes @ 0x20000400)
T162C 8355:511.060 - 9.944ms returns 0x170
T162C 8355:511.090 JLINK_HasError()
T162C 8355:511.100 JLINK_WriteReg(R0, 0x08001400)
T162C 8355:511.109 - 0.012ms returns 0
T162C 8355:511.117 JLINK_WriteReg(R1, 0x00000400)
T162C 8355:511.145 - 0.034ms returns 0
T162C 8355:511.158 JLINK_WriteReg(R2, 0x20000170)
T162C 8355:511.164 - 0.009ms returns 0
T162C 8355:511.172 JLINK_WriteReg(R3, 0x00000000)
T162C 8355:511.178 - 0.008ms returns 0
T162C 8355:511.185 JLINK_WriteReg(R4, 0x00000000)
T162C 8355:511.191 - 0.008ms returns 0
T162C 8355:511.198 JLINK_WriteReg(R5, 0x00000000)
T162C 8355:511.204 - 0.008ms returns 0
T162C 8355:511.212 JLINK_WriteReg(R6, 0x00000000)
T162C 8355:511.218 - 0.008ms returns 0
T162C 8355:511.226 JLINK_WriteReg(R7, 0x00000000)
T162C 8355:511.232 - 0.008ms returns 0
T162C 8355:511.239 JLINK_WriteReg(R8, 0x00000000)
T162C 8355:511.245 - 0.008ms returns 0
T162C 8355:511.252 JLINK_WriteReg(R9, 0x2000016C)
T162C 8355:511.258 - 0.008ms returns 0
T162C 8355:511.265 JLINK_WriteReg(R10, 0x00000000)
T162C 8355:511.271 - 0.008ms returns 0
T162C 8355:511.279 JLINK_WriteReg(R11, 0x00000000)
T162C 8355:511.284 - 0.008ms returns 0
T162C 8355:511.292 JLINK_WriteReg(R12, 0x00000000)
T162C 8355:511.297 - 0.008ms returns 0
T162C 8355:511.305 JLINK_WriteReg(R13 (SP), 0x20001000)
T162C 8355:511.312 - 0.009ms returns 0
T162C 8355:511.319 JLINK_WriteReg(R14, 0x20000001)
T162C 8355:511.325 - 0.008ms returns 0
T162C 8355:511.333 JLINK_WriteReg(R15 (PC), 0x200000FA)
T162C 8355:511.339 - 0.009ms returns 0
T162C 8355:511.346 JLINK_WriteReg(XPSR, 0x01000000)
T162C 8355:511.352 - 0.008ms returns 0
T162C 8355:511.360 JLINK_WriteReg(MSP, 0x20001000)
T162C 8355:511.366 - 0.008ms returns 0
T162C 8355:511.373 JLINK_WriteReg(PSP, 0x20001000)
T162C 8355:511.379 - 0.008ms returns 0
T162C 8355:511.387 JLINK_WriteReg(CFBP, 0x00000000)
T162C 8355:511.393 - 0.008ms returns 0
T162C 8355:511.401 JLINK_SetBPEx(Addr = 0x20000000, Type = 0xFFFFFFF2)
T162C 8355:511.409 - 0.011ms returns 0x0000000A
T162C 8355:511.417 JLINK_Go()
T162C 8355:511.432   CPU_ReadMem(4 bytes @ 0xE0001000)
T162C 8355:521.940 - 10.541ms
T162C 8355:521.967 JLINK_IsHalted()
T162C 8355:522.859 - 0.897ms returns FALSE
T162C 8355:522.871 JLINK_HasError()
T162C 8355:527.186 JLINK_IsHalted()
T162C 8355:528.094 - 0.927ms returns FALSE
T162C 8355:528.122 JLINK_HasError()
T162C 8355:530.016 JLINK_IsHalted()
T162C 8355:547.057 - 17.071ms returns FALSE
T162C 8355:547.097 JLINK_HasError()
T162C 8355:556.662 JLINK_IsHalted()
T162C 8355:567.544   CPU_ReadMem(2 bytes @ 0x20000000)
T162C 8355:568.399 - 11.750ms returns TRUE
T162C 8355:568.423 JLINK_ReadReg(R15 (PC))
T162C 8355:568.432 - 0.012ms returns 0x20000000
T162C 8355:568.440 JLINK_ClrBPEx(BPHandle = 0x0000000A)
T162C 8355:568.446 - 0.009ms returns 0x00
T162C 8355:568.454 JLINK_ReadReg(R0)
T162C 8355:568.460 - 0.008ms returns 0x00000000
T162C 8355:568.930 JLINK_WriteMem(0x20000170, 0x290 Bytes, ...)
T162C 8355:568.946   Data:  01 28 06 D1 20 68 00 68 10 21 88 43 21 68 08 60 ...
T162C 8355:568.962   CPU_WriteMem(656 bytes @ 0x20000170)
T162C 8355:585.659 - 16.745ms returns 0x290
T162C 8355:585.682 JLINK_WriteMem(0x20000400, 0x170 Bytes, ...)
T162C 8355:585.689   Data:  01 F0 60 FD 0E 48 FF F7 4D FA 03 90 0D 48 00 69 ...
T162C 8355:585.705   CPU_WriteMem(368 bytes @ 0x20000400)
T162C 8355:595.608 - 9.946ms returns 0x170
T162C 8355:595.639 JLINK_HasError()
T162C 8355:595.649 JLINK_WriteReg(R0, 0x08001800)
T162C 8355:595.659 - 0.013ms returns 0
T162C 8355:595.667 JLINK_WriteReg(R1, 0x00000400)
T162C 8355:595.673 - 0.009ms returns 0
T162C 8355:595.680 JLINK_WriteReg(R2, 0x20000170)
T162C 8355:595.686 - 0.008ms returns 0
T162C 8355:595.694 JLINK_WriteReg(R3, 0x00000000)
T162C 8355:595.700 - 0.008ms returns 0
T162C 8355:595.707 JLINK_WriteReg(R4, 0x00000000)
T162C 8355:595.713 - 0.008ms returns 0
T162C 8355:595.720 JLINK_WriteReg(R5, 0x00000000)
T162C 8355:595.726 - 0.008ms returns 0
T162C 8355:595.733 JLINK_WriteReg(R6, 0x00000000)
T162C 8355:595.739 - 0.008ms returns 0
T162C 8355:595.747 JLINK_WriteReg(R7, 0x00000000)
T162C 8355:595.752 - 0.008ms returns 0
T162C 8355:595.760 JLINK_WriteReg(R8, 0x00000000)
T162C 8355:595.766 - 0.008ms returns 0
T162C 8355:595.773 JLINK_WriteReg(R9, 0x2000016C)
T162C 8355:595.787 - 0.016ms returns 0
T162C 8355:595.795 JLINK_WriteReg(R10, 0x00000000)
T162C 8355:595.801 - 0.008ms returns 0
T162C 8355:595.808 JLINK_WriteReg(R11, 0x00000000)
T162C 8355:595.814 - 0.008ms returns 0
T162C 8355:595.821 JLINK_WriteReg(R12, 0x00000000)
T162C 8355:595.827 - 0.008ms returns 0
T162C 8355:595.834 JLINK_WriteReg(R13 (SP), 0x20001000)
T162C 8355:595.841 - 0.009ms returns 0
T162C 8355:595.849 JLINK_WriteReg(R14, 0x20000001)
T162C 8355:595.854 - 0.008ms returns 0
T162C 8355:595.862 JLINK_WriteReg(R15 (PC), 0x200000FA)
T162C 8355:595.868 - 0.008ms returns 0
T162C 8355:595.875 JLINK_WriteReg(XPSR, 0x01000000)
T162C 8355:595.881 - 0.008ms returns 0
T162C 8355:595.889 JLINK_WriteReg(MSP, 0x20001000)
T162C 8355:595.895 - 0.008ms returns 0
T162C 8355:595.903 JLINK_WriteReg(PSP, 0x20001000)
T162C 8355:595.908 - 0.008ms returns 0
T162C 8355:595.916 JLINK_WriteReg(CFBP, 0x00000000)
T162C 8355:595.922 - 0.008ms returns 0
T162C 8355:595.929 JLINK_SetBPEx(Addr = 0x20000000, Type = 0xFFFFFFF2)
T162C 8355:595.937 - 0.010ms returns 0x0000000B
T162C 8355:595.944 JLINK_Go()
T162C 8355:595.959   CPU_ReadMem(4 bytes @ 0xE0001000)
T162C 8355:606.294 - 10.363ms
T162C 8355:606.315 JLINK_IsHalted()
T162C 8355:607.200 - 0.888ms returns FALSE
T162C 8355:607.210 JLINK_HasError()
T162C 8355:610.964 JLINK_IsHalted()
T162C 8355:611.899 - 0.950ms returns FALSE
T162C 8355:611.920 JLINK_HasError()
T162C 8355:612.957 JLINK_IsHalted()
T162C 8355:613.858 - 0.908ms returns FALSE
T162C 8355:613.872 JLINK_HasError()
T162C 8355:614.950 JLINK_IsHalted()
T162C 8355:615.825 - 0.879ms returns FALSE
T162C 8355:615.835 JLINK_HasError()
T162C 8355:616.942 JLINK_IsHalted()
T162C 8355:617.775 - 0.840ms returns FALSE
T162C 8355:617.788 JLINK_HasError()
T162C 8355:618.938 JLINK_IsHalted()
T162C 8355:619.824 - 0.890ms returns FALSE
